LTspice 24.0.12 for Windows
Circuit: * C:\Users\tomto\Documents\skola\Skola\NAO\cv5\LT_data\simAC.asc
Start Time: Sun May  4 11:58:40 2025
solver = Normal
Maximum thread count: 16
tnom = 27
temp = 27
method = modified trap
Warning: Pd = 0 is less than W.
Warning: Ps = 0 is less than W.
Warning: Pd = 0 is less than W.
Warning: Ps = 0 is less than W.
Warning: Pd = 0 is less than W.
Warning: Ps = 0 is less than W.
Warning: Pd = 0 is less than W.
Warning: Ps = 0 is less than W.
Warning: Pd = 0 is less than W.
Warning: Ps = 0 is less than W.
Warning: Pd = 0 is less than W.
Warning: Ps = 0 is less than W.
Direct Newton iteration for .op point succeeded.
Semiconductor Device Operating Points:
                        --- BSIM3 MOSFETS ---
Name:        m1          m2          m3          m6          m8
Model:       nch         nch         nch         nch         nch
Id:        2.97e-05    2.97e-05    5.94e-05    3.09e-04    2.03e-05
Vgs:       6.48e-01    6.48e-01    5.82e-01    5.82e-01    5.82e-01
Vds:       9.59e-01    9.58e-01    2.52e-01    9.00e-01    5.82e-01
Vbs:      -2.52e-01   -2.52e-01    0.00e+00    0.00e+00    0.00e+00
Vth:       4.59e-01    4.59e-01    3.83e-01    3.82e-01    3.83e-01
Vdsat:     1.56e-01    1.56e-01    1.54e-01    1.56e-01    1.55e-01
Gm:        3.17e-04    3.17e-04    6.16e-04    3.19e-03    2.11e-04
Gds:       5.32e-07    5.32e-07    1.03e-05    1.42e-05    1.03e-06
Gmb        8.02e-05    8.02e-05    3.09e-04    3.43e-03    1.67e-04
Cbd:       0.00e+00    0.00e+00    0.00e+00    0.00e+00    0.00e+00
Cbs:       0.00e+00    0.00e+00    0.00e+00    0.00e+00    0.00e+00
Cgsov:     1.05e-14    1.05e-14    2.11e-14    1.05e-13    7.02e-15
Cgdov:     1.05e-14    1.05e-14    2.09e-14    1.05e-13    6.97e-15
Cgbov:     1.98e-18    1.98e-18    1.98e-18    1.98e-18    1.98e-18
dQgdVgb:   2.23e-13    2.23e-13    4.56e-13    2.26e-12    1.51e-13
dQgdVdb:  -1.05e-14   -1.05e-14   -2.44e-14   -1.01e-13   -6.77e-15
dQgdVsb:  -2.00e-13   -2.00e-13   -4.73e-13   -3.19e-12   -1.85e-13
dQddVgb:  -9.33e-14   -9.33e-14   -1.91e-13   -9.35e-13   -6.23e-14
dQddVdb:   1.05e-14    1.05e-14    2.44e-14    1.03e-13    6.88e-15
dQddVsb:   1.06e-13    1.06e-13    2.59e-13    1.77e-12    1.02e-13
dQbdVgb:  -3.62e-14   -3.62e-14   -7.45e-14   -3.90e-13   -2.59e-14
dQbdVdb:  -1.45e-17   -1.46e-17   -3.38e-15    4.09e-16   -1.90e-17
dQbdVsb:  -2.26e-14   -2.26e-14   -6.60e-14   -4.51e-13   -2.59e-14

Name:        m4          m5          m7
Model:       pch         pch         pch
Id:       -2.97e-05   -2.97e-05   -3.09e-04
Vgs:      -5.88e-01   -5.88e-01   -5.90e-01
Vds:      -5.90e-01   -5.88e-01   -9.00e-01
Vbs:       0.00e+00    0.00e+00    0.00e+00
Vth:      -4.04e-01   -4.04e-01   -4.04e-01
Vdsat:    -1.57e-01   -1.57e-01   -1.59e-01
Gm:        3.01e-04    3.01e-04    3.09e-03
Gds:       2.48e-06    2.48e-06    2.49e-05
Gmb        9.56e-05    9.56e-05    9.84e-04
Cbd:       0.00e+00    0.00e+00    0.00e+00
Cbs:       0.00e+00    0.00e+00    0.00e+00
Cgsov:     4.11e-14    4.11e-14    4.11e-13
Cgdov:     4.13e-14    4.13e-14    4.13e-13
Cgbov:     1.96e-18    1.96e-18    1.96e-18
dQgdVgb:   8.83e-13    8.83e-13    8.82e-12
dQgdVdb:  -4.00e-14   -4.00e-14   -3.97e-13
dQgdVsb:  -8.06e-13   -8.06e-13   -8.06e-12
dQddVgb:  -3.70e-13   -3.70e-13   -3.69e-12
dQddVdb:   4.06e-14    4.06e-14    4.04e-13
dQddVsb:   4.36e-13    4.36e-13    4.36e-12
dQbdVgb:  -1.44e-13   -1.44e-13   -1.44e-12
dQbdVdb:  -3.43e-17   -3.65e-17    1.85e-15
dQbdVsb:  -1.07e-13   -1.07e-13   -1.07e-12


Total elapsed time: 0.133 seconds.

