Freq.	V(out)
1.00000000000000e+00	(7.83567734672928e+01dB,-3.28971607097680e-02°)
1.02329299228075e+00	(7.83567733967502e+01dB,-3.36981882899040e-02°)
1.04712854805090e+00	(7.83567733228799e+01dB,-3.45170830779362e-02°)
1.07151930523761e+00	(7.83567732455251e+01dB,-3.53542792614633e-02°)
1.09647819614318e+00	(7.83567731645220e+01dB,-3.62102207316357e-02°)
1.12201845430196e+00	(7.83567730796985e+01dB,-3.70853613185067e-02°)
1.14815362149688e+00	(7.83567729908748e+01dB,-3.79801650316524e-02°)
1.17489755493953e+00	(7.83567728978626e+01dB,-3.88951063061877e-02°)
1.20226443461741e+00	(7.83567728004644e+01dB,-3.98306702543106e-02°)
1.23026877081238e+00	(7.83567726984737e+01dB,-4.07873529225069e-02°)
1.25892541179417e+00	(7.83567725916742e+01dB,-4.17656615545508e-02°)
1.28824955169313e+00	(7.83567724798393e+01dB,-4.27661148604431e-02°)
1.31825673855641e+00	(7.83567723627318e+01dB,-4.37892432914275e-02°)
1.34896288259165e+00	(7.83567722401034e+01dB,-4.48355893212316e-02°)
1.38038426460288e+00	(7.83567721116938e+01dB,-4.59057077336819e-02°)
1.41253754462275e+00	(7.83567719772308e+01dB,-4.70001659168444e-02°)
1.44543977074593e+00	(7.83567718364291e+01dB,-4.81195441638479e-02°)
1.47910838816821e+00	(7.83567716889901e+01dB,-4.92644359805478e-02°)
1.51356124843621e+00	(7.83567715346010e+01dB,-5.04354484001957e-02°)
1.54881661891248e+00	(7.83567713729343e+01dB,-5.16332023052788e-02°)
1.58489319246111e+00	(7.83567712036472e+01dB,-5.28583327567023e-02°)
1.62181009735893e+00	(7.83567710263805e+01dB,-5.41114893304878e-02°)
1.65958690743756e+00	(7.83567708407582e+01dB,-5.53933364621660e-02°)
1.69824365246174e+00	(7.83567706463867e+01dB,-5.67045537990468e-02°)
1.73780082874937e+00	(7.83567704428536e+01dB,-5.80458365605539e-02°)
1.77827941003892e+00	(7.83567702297272e+01dB,-5.94178959068133e-02°)
1.81970085860998e+00	(7.83567700065554e+01dB,-6.08214593156925e-02°)
1.86208713666287e+00	(7.83567697728649e+01dB,-6.22572709684896e-02°)
1.90546071796325e+00	(7.83567695281600e+01dB,-6.37260921444764e-02°)
1.94984459975804e+00	(7.83567692719216e+01dB,-6.52287016245050e-02°)
1.99526231496888e+00	(7.83567690036062e+01dB,-6.67658961038917e-02°)
2.04173794466953e+00	(7.83567687226447e+01dB,-6.83384906147966e-02°)
2.08929613085404e+00	(7.83567684284411e+01dB,-6.99473189583228e-02°)
2.13796208950223e+00	(7.83567681203714e+01dB,-7.15932341465643e-02°)
2.18776162394955e+00	(7.83567677977821e+01dB,-7.32771088548367e-02°)
2.23872113856834e+00	(7.83567674599891e+01dB,-7.49998358843301e-02°)
2.29086765276777e+00	(7.83567671062756e+01dB,-7.67623286354293e-02°)
2.34422881531992e+00	(7.83567667358916e+01dB,-7.85655215919521e-02°)
2.39883291901949e+00	(7.83567663480514e+01dB,-8.04103708165625e-02°)
2.45470891568503e+00	(7.83567659419323e+01dB,-8.22978544576195e-02°)
2.51188643150958e+00	(7.83567655166729e+01dB,-8.42289732677331e-02°)
2.57039578276886e+00	(7.83567650713711e+01dB,-8.62047511342991e-02°)
2.63026799189538e+00	(7.83567646050825e+01dB,-8.82262356222942e-02°)
2.69153480392691e+00	(7.83567641168180e+01dB,-9.02944985296208e-02°)
2.75422870333816e+00	(7.83567636055419e+01dB,-9.24106364552929e-02°)
2.81838293126445e+00	(7.83567630701697e+01dB,-9.45757713807656e-02°)
2.88403150312660e+00	(7.83567625095658e+01dB,-9.67910512647151e-02°)
2.95120922666638e+00	(7.83567619225412e+01dB,-9.90576506515849e-02°)
3.01995172040201e+00	(7.83567613078507e+01dB,-1.01376771294219e-01°)
3.09029543251359e+00	(7.83567606641904e+01dB,-1.03749642790913e-01°)
3.16227766016837e+00	(7.83567599901951e+01dB,-1.06177523237219e-01°)
3.23593656929628e+00	(7.83567592844352e+01dB,-1.08661699892852e-01°)
3.31131121482591e+00	(7.83567585454137e+01dB,-1.11203489864043e-01°)
3.38844156139202e+00	(7.83567577715630e+01dB,-1.13804240801712e-01°)
3.46736850452531e+00	(7.83567569612417e+01dB,-1.16465331615822e-01°)
3.54813389233575e+00	(7.83567561127310e+01dB,-1.19188173206287e-01°)
3.63078054770101e+00	(7.83567552242311e+01dB,-1.21974209210835e-01°)
3.71535229097172e+00	(7.83567542938575e+01dB,-1.24824916770211e-01°)
3.80189396320560e+00	(7.83567533196367e+01dB,-1.27741807311124e-01°)
3.89045144994280e+00	(7.83567522995023e+01dB,-1.30726427347360e-01°)
3.98107170553496e+00	(7.83567512312905e+01dB,-1.33780359299473e-01°)
4.07380277804112e+00	(7.83567501127355e+01dB,-1.36905222333502e-01°)
4.16869383470335e+00	(7.83567489414648e+01dB,-1.40102673219140e-01°)
4.26579518801592e+00	(7.83567477149938e+01dB,-1.43374407207826e-01°)
4.36515832240165e+00	(7.83567464307213e+01dB,-1.46722158931208e-01°)
4.46683592150962e+00	(7.83567450859232e+01dB,-1.50147703320462e-01°)
4.57088189614874e+00	(7.83567436777469e+01dB,-1.53652856546951e-01°)
4.67735141287197e+00	(7.83567422032057e+01dB,-1.57239476984714e-01°)
4.78630092322637e+00	(7.83567406591718e+01dB,-1.60909466195307e-01°)
4.89778819368445e+00	(7.83567390423704e+01dB,-1.64664769935493e-01°)
5.01187233627271e+00	(7.83567373493719e+01dB,-1.68507379188341e-01°)
5.12861383991364e+00	(7.83567355765854e+01dB,-1.72439331218257e-01°)
5.24807460249771e+00	(7.83567337202508e+01dB,-1.76462710650505e-01°)
5.37031796370252e+00	(7.83567317764305e+01dB,-1.80579650575805e-01°)
5.49540873857623e+00	(7.83567297410016e+01dB,-1.84792333680565e-01°)
5.62341325190348e+00	(7.83567276096468e+01dB,-1.89102993403363e-01°)
5.75439937337156e+00	(7.83567253778454e+01dB,-1.93513915118276e-01°)
5.88843655355588e+00	(7.83567230408636e+01dB,-1.98027437345688e-01°)
6.02559586074356e+00	(7.83567205937444e+01dB,-2.02645952991207e-01°)
6.16595001861481e+00	(7.83567180312975e+01dB,-2.07371910613349e-01°)
6.30957344480192e+00	(7.83567153480877e+01dB,-2.12207815720651e-01°)
6.45654229034654e+00	(7.83567125384238e+01dB,-2.17156232098901e-01°)
6.60693448007594e+00	(7.83567095963464e+01dB,-2.22219783169175e-01°)
6.76082975391980e+00	(7.83567065156152e+01dB,-2.27401153377407e-01°)
6.91830970918935e+00	(7.83567032896959e+01dB,-2.32703089616203e-01°)
7.07945784384136e+00	(7.83566999117462e+01dB,-2.38128402679675e-01°)
7.24435960074988e+00	(7.83566963746014e+01dB,-2.43679968752018e-01°)
7.41310241300916e+00	(7.83566926707591e+01dB,-2.49360730930655e-01°)
7.58577575029182e+00	(7.83566887923635e+01dB,-2.55173700784716e-01°)
7.76247116628690e+00	(7.83566847311883e+01dB,-2.61121959949681e-01°)
7.94328234724279e+00	(7.83566804786199e+01dB,-2.67208661759021e-01°)
8.12830516164097e+00	(7.83566760256385e+01dB,-2.73437032913698e-01°)
8.31763771102669e+00	(7.83566713627994e+01dB,-2.79810375190376e-01°)
8.51138038202374e+00	(7.83566664802128e+01dB,-2.86332067189268e-01°)
8.70963589956078e+00	(7.83566613675227e+01dB,-2.93005566122499e-01°)
8.91250938133743e+00	(7.83566560138855e+01dB,-2.99834409643947e-01°)
9.12010839355907e+00	(7.83566504079461e+01dB,-3.06822217721500e-01°)
9.33254300796988e+00	(7.83566445378147e+01dB,-3.13972694552708e-01°)
9.54992586021433e+00	(7.83566383910410e+01dB,-3.21289630524833e-01°)
9.77237220955808e+00	(7.83566319545880e+01dB,-3.28776904220315e-01°)
9.99999999999997e+00	(7.83566252148045e+01dB,-3.36438484468697e-01°)
1.02329299228075e+01	(7.83566181573960e+01dB,-3.44278432446065e-01°)
1.04712854805090e+01	(7.83566107673944e+01dB,-3.52300903823120e-01°)
1.07151930523760e+01	(7.83566030291261e+01dB,-3.60510150962963e-01°)
1.09647819614318e+01	(7.83565949261793e+01dB,-3.68910525169753e-01°)
1.12201845430196e+01	(7.83565864413685e+01dB,-3.77506478989399e-01°)
1.14815362149688e+01	(7.83565775566987e+01dB,-3.86302568563467e-01°)
1.17489755493953e+01	(7.83565682533266e+01dB,-3.95303456037522e-01°)
1.20226443461741e+01	(7.83565585115216e+01dB,-4.04513912025150e-01°)
1.23026877081238e+01	(7.83565483106228e+01dB,-4.13938818128928e-01°)
1.25892541179416e+01	(7.83565376289961e+01dB,-4.23583169519624e-01°)
1.28824955169313e+01	(7.83565264439880e+01dB,-4.33452077574979e-01°)
1.31825673855640e+01	(7.83565147318775e+01dB,-4.43550772579395e-01°)
1.34896288259165e+01	(7.83565024678261e+01dB,-4.53884606485927e-01°)
1.38038426460288e+01	(7.83564896258249e+01dB,-4.64459055741994e-01°)
1.41253754462275e+01	(7.83564761786395e+01dB,-4.75279724180226e-01°)
1.44543977074592e+01	(7.83564620977524e+01dB,-4.86352345975958e-01°)
1.47910838816820e+01	(7.83564473533025e+01dB,-4.97682788672826e-01°)
1.51356124843620e+01	(7.83564319140216e+01dB,-5.09277056278044e-01°)
1.54881661891248e+01	(7.83564157471687e+01dB,-5.21141292428896e-01°)
1.58489319246111e+01	(7.83563988184600e+01dB,-5.33281783632057e-01°)
1.62181009735892e+01	(7.83563810919965e+01dB,-5.45704962577370e-01°)
1.65958690743755e+01	(7.83563625301881e+01dB,-5.58417411527745e-01°)
1.69824365246174e+01	(7.83563430936736e+01dB,-5.71425865786872e-01°)
1.73780082874937e+01	(7.83563227412376e+01dB,-5.84737217246488e-01°)
1.77827941003892e+01	(7.83563014297230e+01dB,-5.98358518014965e-01°)
1.81970085860998e+01	(7.83562791139399e+01dB,-6.12296984129013e-01°)
1.86208713666286e+01	(7.83562557465691e+01dB,-6.26559999350343e-01°)
1.90546071796324e+01	(7.83562312780629e+01dB,-6.41155119049161e-01°)
1.94984459975804e+01	(7.83562056565392e+01dB,-6.56090074176398e-01°)
1.99526231496887e+01	(7.83561788276723e+01dB,-6.71372775326632e-01°)
2.04173794466952e+01	(7.83561507345775e+01dB,-6.87011316893665e-01°)
2.08929613085403e+01	(7.83561213176907e+01dB,-7.03013981320802e-01°)
2.13796208950222e+01	(7.83560905146422e+01dB,-7.19389243447856e-01°)
2.18776162394954e+01	(7.83560582601250e+01dB,-7.36145774957000e-01°)
2.23872113856833e+01	(7.83560244857560e+01dB,-7.53292448919573e-01°)
2.29086765276776e+01	(7.83559891199314e+01dB,-7.70838344446030e-01°)
2.34422881531991e+01	(7.83559520876756e+01dB,-7.88792751441224e-01°)
2.39883291901948e+01	(7.83559133104818e+01dB,-8.07165175467267e-01°)
2.45470891568502e+01	(7.83558727061462e+01dB,-8.25965342716256e-01°)
2.51188643150957e+01	(7.83558301885942e+01dB,-8.45203205095173e-01°)
2.57039578276885e+01	(7.83557856676977e+01dB,-8.64888945425313e-01°)
2.63026799189537e+01	(7.83557390490852e+01dB,-8.85032982758631e-01°)
2.69153480392690e+01	(7.83556902339416e+01dB,-9.05645977813440e-01°)
2.75422870333815e+01	(7.83556391187991e+01dB,-9.26738838531899e-01°)
2.81838293126444e+01	(7.83555855953190e+01dB,-9.48322725761819e-01°)
2.88403150312659e+01	(7.83555295500620e+01dB,-9.70409059065280e-01°)
2.95120922666637e+01	(7.83554708642486e+01dB,-9.93009522656646e-01°)
3.01995172040200e+01	(7.83554094135080e+01dB,-1.01613607147257e+00°)
3.09029543251358e+01	(7.83553450676150e+01dB,-1.03980093737657e+00°)
3.16227766016837e+01	(7.83552776902154e+01dB,-1.06401663550094e+00°)
3.23593656929627e+01	(7.83552071385371e+01dB,-1.08879597072850e+00°)
3.31131121482590e+01	(7.83551332630890e+01dB,-1.11415204431707e+00°)
3.38844156139201e+01	(7.83550559073452e+01dB,-1.14009826066927e+00°)
3.46736850452530e+01	(7.83549749074142e+01dB,-1.16664833425048e+00°)
3.54813389233574e+01	(7.83548900916933e+01dB,-1.19381629665767e+00°)
3.63078054770100e+01	(7.83548012805059e+01dB,-1.22161650384192e+00°)
3.71535229097171e+01	(7.83547082857227e+01dB,-1.25006364348740e+00°)
3.80189396320559e+01	(7.83546109103646e+01dB,-1.27917274254966e+00°)
3.89045144994279e+01	(7.83545089481873e+01dB,-1.30895917495604e+00°)
3.98107170553495e+01	(7.83544021832462e+01dB,-1.33943866947092e+00°)
4.07380277804111e+01	(7.83542903894416e+01dB,-1.37062731772880e+00°)
4.16869383470333e+01	(7.83541733300415e+01dB,-1.40254158243783e+00°)
4.26579518801591e+01	(7.83540507571835e+01dB,-1.43519830575676e+00°)
4.36515832240164e+01	(7.83539224113525e+01dB,-1.46861471784794e+00°)
4.46683592150961e+01	(7.83537880208339e+01dB,-1.50280844560915e+00°)
4.57088189614873e+01	(7.83536473011425e+01dB,-1.53779752158715e+00°)
4.67735141287196e+01	(7.83534999544231e+01dB,-1.57360039307530e+00°)
4.78630092322636e+01	(7.83533456688247e+01dB,-1.61023593139823e+00°)
4.89778819368444e+01	(7.83531841178445e+01dB,-1.64772344138594e+00°)
5.01187233627270e+01	(7.83530149596419e+01dB,-1.68608267103979e+00°)
5.12861383991362e+01	(7.83528378363204e+01dB,-1.72533382139311e+00°)
5.24807460249770e+01	(7.83526523731760e+01dB,-1.76549755656835e+00°)
5.37031796370250e+01	(7.83524581779114e+01dB,-1.80659501403348e+00°)
5.49540873857622e+01	(7.83522548398124e+01dB,-1.84864781505936e+00°)
5.62341325190346e+01	(7.83520419288875e+01dB,-1.89167807538044e+00°)
5.75439937337154e+01	(7.83518189949667e+01dB,-1.93570841606042e+00°)
5.88843655355586e+01	(7.83515855667586e+01dB,-1.98076197456473e+00°)
6.02559586074355e+01	(7.83513411508646e+01dB,-2.02686241604126e+00°)
6.16595001861479e+01	(7.83510852307467e+01dB,-2.07403394481084e+00°)
6.30957344480190e+01	(7.83508172656479e+01dB,-2.12230131606843e+00°)
6.45654229034652e+01	(7.83505366894630e+01dB,-2.17168984779602e+00°)
6.60693448007593e+01	(7.83502429095566e+01dB,-2.22222543288787e+00°)
6.76082975391978e+01	(7.83499353055282e+01dB,-2.27393455148845e+00°)
6.91830970918933e+01	(7.83496132279183e+01dB,-2.32684428354301e+00°)
7.07945784384134e+01	(7.83492759968570e+01dB,-2.38098232156070e+00°)
7.24435960074986e+01	(7.83489229006495e+01dB,-2.43637698358931e+00°)
7.41310241300914e+01	(7.83485531942972e+01dB,-2.49305722640077e+00°)
7.58577575029180e+01	(7.83481660979505e+01dB,-2.55105265888575e+00°)
7.76247116628688e+01	(7.83477607952917e+01dB,-2.61039355565536e+00°)
7.94328234724277e+01	(7.83473364318438e+01dB,-2.67111087084761e+00°)
8.12830516164095e+01	(7.83468921132016e+01dB,-2.73323625213520e+00°)
8.31763771102667e+01	(7.83464269031833e+01dB,-2.79680205493130e+00°)
8.51138038202372e+01	(7.83459398218970e+01dB,-2.86184135678864e+00°)
8.70963589956076e+01	(7.83454298437212e+01dB,-2.92838797198709e+00°)
8.91250938133741e+01	(7.83448958951916e+01dB,-2.99647646630366e+00°)
9.12010839355905e+01	(7.83443368527948e+01dB,-3.06614217195829e+00°)
9.33254300796986e+01	(7.83437515406607e+01dB,-3.13742120272784e+00°)
9.54992586021431e+01	(7.83431387281524e+01dB,-3.21035046921975e+00°)
9.77237220955805e+01	(7.83424971273468e+01dB,-3.28496769429556e+00°)
9.99999999999995e+01	(7.83418253904036e+01dB,-3.36131142863374e+00°)
1.02329299228075e+02	(7.83411221068159e+01dB,-3.43942106641977e+00°)
1.04712854805089e+02	(7.83403858005385e+01dB,-3.51933686115009e+00°)
1.07151930523760e+02	(7.83396149269895e+01dB,-3.60109994153546e+00°)
1.09647819614318e+02	(7.83388078699175e+01dB,-3.68475232748740e+00°)
1.12201845430196e+02	(7.83379629381324e+01dB,-3.77033694616988e+00°)
1.14815362149688e+02	(7.83370783620909e+01dB,-3.85789764809693e+00°)
1.17489755493952e+02	(7.83361522903327e+01dB,-3.94747922325457e+00°)
1.20226443461741e+02	(7.83351827857614e+01dB,-4.03912741722391e+00°)
1.23026877081237e+02	(7.83341678217633e+01dB,-4.13288894727982e+00°)
1.25892541179416e+02	(7.83331052781575e+01dB,-4.22881151843751e+00°)
1.28824955169313e+02	(7.83319929369717e+01dB,-4.32694383941691e+00°)
1.31825673855640e+02	(7.83308284780364e+01dB,-4.42733563849197e+00°)
1.34896288259165e+02	(7.83296094743908e+01dB,-4.53003767918965e+00°)
1.38038426460288e+02	(7.83283333874924e+01dB,-4.63510177579995e+00°)
1.41253754462275e+02	(7.83269975622248e+01dB,-4.74258080865565e+00°)
1.44543977074592e+02	(7.83255992216947e+01dB,-4.85252873913681e+00°)
1.47910838816820e+02	(7.83241354618116e+01dB,-4.96500062435167e+00°)
1.51356124843620e+02	(7.83226032456411e+01dB,-5.08005263144180e+00°)
1.54881661891247e+02	(7.83209993975263e+01dB,-5.19774205145543e+00°)
1.58489319246110e+02	(7.83193205969666e+01dB,-5.31812731272854e+00°)
1.62181009735892e+02	(7.83175633722479e+01dB,-5.44126799370892e+00°)
1.65958690743755e+02	(7.83157240938151e+01dB,-5.56722483515362e+00°)
1.69824365246173e+02	(7.83137989673790e+01dB,-5.69605975162517e+00°)
1.73780082874936e+02	(7.83117840267493e+01dB,-5.82783584220663e+00°)
1.77827941003891e+02	(7.83096751263854e+01dB,-5.96261740035002e+00°)
1.81970085860997e+02	(7.83074679336569e+01dB,-6.10046992276666e+00°)
1.86208713666286e+02	(7.83051579208058e+01dB,-6.24146011726173e+00°)
1.90546071796323e+02	(7.83027403566014e+01dB,-6.38565590940893e+00°)
1.94984459975803e+02	(7.83002102976823e+01dB,-6.53312644795405e+00°)
1.99526231496887e+02	(7.82975625795747e+01dB,-6.68394210882919e+00°)
2.04173794466952e+02	(7.82947918073821e+01dB,-6.83817449765167e+00°)
2.08929613085403e+02	(7.82918923461382e+01dB,-6.99589645057393e+00°)
2.13796208950222e+02	(7.82888583108163e+01dB,-7.15718203334218e+00°)
2.18776162394954e+02	(7.82856835559894e+01dB,-7.32210653841313e+00°)
2.23872113856832e+02	(7.82823616651350e+01dB,-7.49074647996919e+00°)
2.29086765276776e+02	(7.82788859395788e+01dB,-7.66317958666292e+00°)
2.34422881531991e+02	(7.82752493870751e+01dB,-7.83948479191222e+00°)
2.39883291901947e+02	(7.82714447100181e+01dB,-8.01974222155746e+00°)
2.45470891568501e+02	(7.82674642932825e+01dB,-8.20403317868158e+00°)
2.51188643150956e+02	(7.82633001916932e+01dB,-8.39244012538369e+00°)
2.57039578276885e+02	(7.82589441171212e+01dB,-8.58504666128558e+00°)
2.63026799189536e+02	(7.82543874252104e+01dB,-8.78193749853981e+00°)
2.69153480392690e+02	(7.82496211017348e+01dB,-8.98319843309656e+00°)
2.75422870333815e+02	(7.82446357485928e+01dB,-9.18891631197512e+00°)
2.81838293126443e+02	(7.82394215694443e+01dB,-9.39917899627432e+00°)
2.88403150312659e+02	(7.82339683549991e+01dB,-9.61407531964485e+00°)
2.95120922666637e+02	(7.82282654679675e+01dB,-9.83369504193491e+00°)
3.01995172040200e+02	(7.82223018276866e+01dB,-1.00581287977092e+01°)
3.09029543251357e+02	(7.82160658944388e+01dB,-1.02874680393302e+01°)
3.16227766016836e+02	(7.82095456534814e+01dB,-1.05218049742812e+01°)
3.23593656929626e+02	(7.82027285988100e+01dB,-1.07612324963969e+01°)
3.31131121482589e+02	(7.81956017166823e+01dB,-1.10058441106632e+01°)
3.38844156139200e+02	(7.81881514689313e+01dB,-1.12557338512334e+01°)
3.46736850452529e+02	(7.81803637761047e+01dB,-1.15109961923045e+01°)
3.54813389233573e+02	(7.81722240004657e+01dB,-1.17717259514884e+01°)
3.63078054770099e+02	(7.81637169289027e+01dB,-1.20380181853072e+01°)
3.71535229097170e+02	(7.81548267557939e+01dB,-1.23099680764410e+01°)
3.80189396320558e+02	(7.81455370658827e+01dB,-1.25876708123511e+01°)
3.89045144994278e+02	(7.81358308172237e+01dB,-1.28712214549037e+01°)
3.98107170553494e+02	(7.81256903242661e+01dB,-1.31607148006229e+01°)
4.07380277804110e+02	(7.81150972411466e+01dB,-1.34562452312061e+01°)
4.16869383470332e+02	(7.81040325452726e+01dB,-1.37579065539420e+01°)
4.26579518801589e+02	(7.80924765212829e+01dB,-1.40657918316890e+01°)
4.36515832240163e+02	(7.80804087454789e+01dB,-1.43799932020799e+01°)
4.46683592150960e+02	(7.80678080708302e+01dB,-1.47006016856475e+01°)
4.57088189614872e+02	(7.80546526126643e+01dB,-1.50277069825835e+01°)
4.67735141287195e+02	(7.80409197351580e+01dB,-1.53613972578776e+01°)
4.78630092322635e+02	(7.80265860387584e+01dB,-1.57017589146177e+01°)
4.89778819368442e+02	(7.80116273486681e+01dB,-1.60488763552737e+01°)
5.01187233627268e+02	(7.79960187045385e+01dB,-1.64028317308348e+01°)
5.12861383991361e+02	(7.79797343515219e+01dB,-1.67637046777271e+01°)
5.24807460249769e+02	(7.79627477328452e+01dB,-1.71315720424968e+01°)
5.37031796370249e+02	(7.79450314840706e+01dB,-1.75065075943170e+01°)
5.49540873857620e+02	(7.79265574292212e+01dB,-1.78885817254523e+01°)
5.62341325190345e+02	(7.79072965789537e+01dB,-1.82778611399006e+01°)
5.75439937337152e+02	(7.78872191309679e+01dB,-1.86744085305263e+01°)
5.88843655355584e+02	(7.78662944728479e+01dB,-1.90782822451021e+01°)
6.02559586074353e+02	(7.78444911875357e+01dB,-1.94895359417871e+01°)
6.16595001861477e+02	(7.78217770616411e+01dB,-1.99082182346896e+01°)
6.30957344480188e+02	(7.77981190967925e+01dB,-2.03343723302900e+01°)
6.45654229034650e+02	(7.77734835242378e+01dB,-2.07680356556385e+01°)
6.60693448007591e+02	(7.77478358228990e+01dB,-2.12092394793815e+01°)
6.76082975391976e+02	(7.77211407410856e+01dB,-2.16580085268269e+01°)
6.91830970918931e+02	(7.76933623220644e+01dB,-2.21143605904106e+01°)
7.07945784384132e+02	(7.76644639336756e+01dB,-2.25783061370924e+01°)
7.24435960074984e+02	(7.76344083021778e+01dB,-2.30498479143706e+01°)
7.41310241300911e+02	(7.76031575504895e+01dB,-2.35289805567778e+01°)
7.58577575029177e+02	(7.75706732409788e+01dB,-2.40156901948825e+01°)
