vin	V(out)	V(n001)
0.000000000000000e+00	3.868016e-07	0.000000e+00
1.000000000000000e-03	3.933023e-07	1.000000e-03
2.000000000000000e-03	4.008291e-07	2.000000e-03
3.000000000000000e-03	4.087173e-07	3.000000e-03
4.000000000000000e-03	4.172904e-07	4.000000e-03
5.000000000000000e-03	4.266516e-07	5.000000e-03
6.000000000000000e-03	4.369226e-07	6.000000e-03
7.000000000000000e-03	4.482543e-07	7.000000e-03
8.000000000000000e-03	4.608357e-07	8.000000e-03
9.000000000000001e-03	4.749071e-07	9.000000e-03
1.000000000000000e-02	4.907800e-07	1.000000e-02
1.100000000000000e-02	5.088660e-07	1.100000e-02
1.200000000000000e-02	5.297226e-07	1.200000e-02
1.300000000000000e-02	5.541268e-07	1.300000e-02
1.400000000000001e-02	5.831983e-07	1.400000e-02
1.500000000000001e-02	6.186184e-07	1.500000e-02
1.600000000000001e-02	6.630423e-07	1.600000e-02
1.700000000000001e-02	7.209377e-07	1.700000e-02
1.800000000000001e-02	8.004651e-07	1.800000e-02
1.900000000000001e-02	9.182417e-07	1.900000e-02
2.000000000000001e-02	1.113547e-06	2.000000e-02
2.100000000000001e-02	1.500928e-06	2.100000e-02
2.200000000000001e-02	2.529398e-06	2.200000e-02
2.300000000000001e-02	8.046540e-06	2.300000e-02
2.400000000000001e-02	4.312785e-05	2.400000e-02
2.500000000000002e-02	2.637050e-04	2.500000e-02
2.600000000000002e-02	1.069639e-03	2.600000e-02
2.700000000000002e-02	2.523666e-03	2.700000e-02
2.800000000000002e-02	4.313336e-03	2.800000e-02
2.900000000000002e-02	6.224187e-03	2.900000e-02
3.000000000000002e-02	8.160778e-03	3.000000e-02
3.100000000000002e-02	1.008944e-02	3.100000e-02
3.200000000000002e-02	1.198525e-02	3.200000e-02
3.300000000000002e-02	1.383935e-02	3.300000e-02
3.400000000000002e-02	1.564848e-02	3.400000e-02
3.500000000000002e-02	1.741180e-02	3.500000e-02
3.600000000000003e-02	1.912992e-02	3.600000e-02
3.700000000000003e-02	2.080428e-02	3.700000e-02
3.800000000000003e-02	2.243676e-02	3.800000e-02
3.900000000000003e-02	2.402949e-02	3.900000e-02
4.000000000000003e-02	2.558465e-02	4.000000e-02
4.100000000000003e-02	2.710445e-02	4.100000e-02
4.200000000000003e-02	2.859105e-02	4.200000e-02
4.300000000000003e-02	3.004654e-02	4.300000e-02
4.400000000000003e-02	3.147292e-02	4.400000e-02
4.500000000000003e-02	3.287210e-02	4.500000e-02
4.600000000000003e-02	3.424588e-02	4.600000e-02
4.700000000000003e-02	3.559595e-02	4.700000e-02
4.800000000000004e-02	3.692392e-02	4.800000e-02
4.900000000000004e-02	3.823128e-02	4.900000e-02
5.000000000000004e-02	3.951943e-02	5.000000e-02
5.100000000000004e-02	4.078970e-02	5.100000e-02
5.200000000000004e-02	4.204331e-02	5.200000e-02
5.300000000000004e-02	4.328140e-02	5.300000e-02
5.400000000000004e-02	4.450504e-02	5.400000e-02
5.500000000000004e-02	4.571524e-02	5.500000e-02
5.600000000000004e-02	4.691291e-02	5.600000e-02
5.700000000000004e-02	4.809892e-02	5.700000e-02
5.800000000000004e-02	4.927406e-02	5.800000e-02
5.900000000000005e-02	5.043910e-02	5.900000e-02
6.000000000000005e-02	5.159472e-02	6.000000e-02
6.100000000000005e-02	5.274155e-02	6.100000e-02
6.200000000000005e-02	5.388021e-02	6.200000e-02
6.300000000000004e-02	5.501124e-02	6.300000e-02
6.400000000000004e-02	5.613516e-02	6.400000e-02
6.500000000000004e-02	5.725245e-02	6.500000e-02
6.600000000000004e-02	5.836356e-02	6.600000e-02
6.700000000000005e-02	5.946889e-02	6.700000e-02
6.800000000000005e-02	6.056882e-02	6.800000e-02
6.900000000000005e-02	6.166372e-02	6.900000e-02
7.000000000000005e-02	6.275391e-02	7.000000e-02
7.100000000000005e-02	6.383970e-02	7.100000e-02
7.200000000000005e-02	6.492137e-02	7.200000e-02
7.300000000000005e-02	6.599919e-02	7.300000e-02
7.400000000000005e-02	6.707340e-02	7.400000e-02
7.500000000000005e-02	6.814423e-02	7.500000e-02
7.600000000000005e-02	6.921189e-02	7.600000e-02
7.700000000000005e-02	7.027659e-02	7.700000e-02
7.800000000000006e-02	7.133849e-02	7.800000e-02
7.900000000000006e-02	7.239778e-02	7.900000e-02
8.000000000000006e-02	7.345462e-02	8.000000e-02
8.100000000000006e-02	7.450914e-02	8.100000e-02
8.200000000000006e-02	7.556150e-02	8.200000e-02
8.300000000000006e-02	7.661182e-02	8.300000e-02
8.400000000000006e-02	7.766021e-02	8.400000e-02
8.500000000000006e-02	7.870680e-02	8.500000e-02
8.600000000000006e-02	7.975169e-02	8.600000e-02
8.700000000000006e-02	8.079496e-02	8.700000e-02
8.800000000000006e-02	8.183673e-02	8.800000e-02
8.900000000000007e-02	8.287707e-02	8.900000e-02
9.000000000000007e-02	8.391605e-02	9.000000e-02
9.100000000000007e-02	8.495378e-02	9.100000e-02
9.200000000000007e-02	8.599029e-02	9.200000e-02
9.300000000000007e-02	8.702566e-02	9.300000e-02
9.400000000000007e-02	8.805997e-02	9.400000e-02
9.500000000000007e-02	8.909326e-02	9.500000e-02
9.600000000000007e-02	9.012558e-02	9.600000e-02
9.700000000000007e-02	9.115700e-02	9.700000e-02
9.800000000000007e-02	9.218755e-02	9.800000e-02
9.900000000000007e-02	9.321728e-02	9.900000e-02
1.000000000000001e-01	9.424623e-02	1.000000e-01
1.010000000000001e-01	9.527445e-02	1.010000e-01
1.020000000000001e-01	9.630197e-02	1.020000e-01
1.030000000000001e-01	9.732883e-02	1.030000e-01
1.040000000000001e-01	9.835506e-02	1.040000e-01
1.050000000000001e-01	9.938069e-02	1.050000e-01
1.060000000000001e-01	1.004058e-01	1.060000e-01
1.070000000000001e-01	1.014303e-01	1.070000e-01
1.080000000000001e-01	1.024543e-01	1.080000e-01
1.090000000000001e-01	1.034778e-01	1.090000e-01
1.100000000000001e-01	1.045009e-01	1.100000e-01
1.110000000000001e-01	1.055235e-01	1.110000e-01
1.120000000000001e-01	1.065456e-01	1.120000e-01
1.130000000000001e-01	1.075674e-01	1.130000e-01
1.140000000000001e-01	1.085888e-01	1.140000e-01
1.150000000000001e-01	1.096099e-01	1.150000e-01
1.160000000000001e-01	1.106306e-01	1.160000e-01
1.170000000000001e-01	1.116509e-01	1.170000e-01
1.180000000000001e-01	1.126709e-01	1.180000e-01
1.190000000000001e-01	1.136907e-01	1.190000e-01
1.200000000000001e-01	1.147101e-01	1.200000e-01
1.210000000000001e-01	1.157293e-01	1.210000e-01
1.220000000000001e-01	1.167482e-01	1.220000e-01
1.230000000000001e-01	1.177668e-01	1.230000e-01
1.240000000000001e-01	1.187852e-01	1.240000e-01
1.250000000000001e-01	1.198034e-01	1.250000e-01
1.260000000000001e-01	1.208213e-01	1.260000e-01
1.270000000000001e-01	1.218391e-01	1.270000e-01
1.280000000000001e-01	1.228566e-01	1.280000e-01
1.290000000000001e-01	1.238740e-01	1.290000e-01
1.300000000000001e-01	1.248911e-01	1.300000e-01
1.310000000000001e-01	1.259081e-01	1.310000e-01
1.320000000000001e-01	1.269249e-01	1.320000e-01
1.330000000000001e-01	1.279415e-01	1.330000e-01
1.340000000000001e-01	1.289580e-01	1.340000e-01
1.350000000000001e-01	1.299743e-01	1.350000e-01
1.360000000000001e-01	1.309905e-01	1.360000e-01
1.370000000000001e-01	1.320066e-01	1.370000e-01
1.380000000000001e-01	1.330225e-01	1.380000e-01
1.390000000000001e-01	1.340382e-01	1.390000e-01
1.400000000000001e-01	1.350539e-01	1.400000e-01
1.410000000000001e-01	1.360694e-01	1.410000e-01
1.420000000000001e-01	1.370848e-01	1.420000e-01
1.430000000000001e-01	1.381001e-01	1.430000e-01
1.440000000000001e-01	1.391153e-01	1.440000e-01
1.450000000000001e-01	1.401304e-01	1.450000e-01
1.460000000000001e-01	1.411454e-01	1.460000e-01
1.470000000000001e-01	1.421603e-01	1.470000e-01
1.480000000000001e-01	1.431751e-01	1.480000e-01
1.490000000000001e-01	1.441898e-01	1.490000e-01
1.500000000000001e-01	1.452044e-01	1.500000e-01
1.510000000000001e-01	1.462190e-01	1.510000e-01
1.520000000000001e-01	1.472334e-01	1.520000e-01
1.530000000000001e-01	1.482478e-01	1.530000e-01
1.540000000000001e-01	1.492621e-01	1.540000e-01
1.550000000000001e-01	1.502763e-01	1.550000e-01
1.560000000000001e-01	1.512905e-01	1.560000e-01
1.570000000000001e-01	1.523046e-01	1.570000e-01
1.580000000000001e-01	1.533186e-01	1.580000e-01
1.590000000000001e-01	1.543326e-01	1.590000e-01
1.600000000000001e-01	1.553465e-01	1.600000e-01
1.610000000000001e-01	1.563603e-01	1.610000e-01
1.620000000000001e-01	1.573740e-01	1.620000e-01
1.630000000000001e-01	1.583878e-01	1.630000e-01
1.640000000000001e-01	1.594014e-01	1.640000e-01
1.650000000000001e-01	1.604150e-01	1.650000e-01
1.660000000000001e-01	1.614286e-01	1.660000e-01
1.670000000000001e-01	1.624420e-01	1.670000e-01
1.680000000000001e-01	1.634555e-01	1.680000e-01
1.690000000000001e-01	1.644689e-01	1.690000e-01
1.700000000000001e-01	1.654822e-01	1.700000e-01
1.710000000000001e-01	1.664955e-01	1.710000e-01
1.720000000000001e-01	1.675088e-01	1.720000e-01
1.730000000000001e-01	1.685220e-01	1.730000e-01
1.740000000000001e-01	1.695351e-01	1.740000e-01
1.750000000000001e-01	1.705482e-01	1.750000e-01
1.760000000000001e-01	1.715613e-01	1.760000e-01
1.770000000000001e-01	1.725744e-01	1.770000e-01
1.780000000000001e-01	1.735874e-01	1.780000e-01
1.790000000000001e-01	1.746003e-01	1.790000e-01
1.800000000000001e-01	1.756132e-01	1.800000e-01
1.810000000000001e-01	1.766261e-01	1.810000e-01
1.820000000000001e-01	1.776390e-01	1.820000e-01
1.830000000000001e-01	1.786518e-01	1.830000e-01
1.840000000000001e-01	1.796645e-01	1.840000e-01
1.850000000000001e-01	1.806773e-01	1.850000e-01
1.860000000000001e-01	1.816900e-01	1.860000e-01
1.870000000000001e-01	1.827027e-01	1.870000e-01
1.880000000000001e-01	1.837153e-01	1.880000e-01
1.890000000000001e-01	1.847279e-01	1.890000e-01
1.900000000000001e-01	1.857405e-01	1.900000e-01
1.910000000000001e-01	1.867531e-01	1.910000e-01
1.920000000000001e-01	1.877656e-01	1.920000e-01
1.930000000000001e-01	1.887781e-01	1.930000e-01
1.940000000000001e-01	1.897905e-01	1.940000e-01
1.950000000000001e-01	1.908030e-01	1.950000e-01
1.960000000000001e-01	1.918154e-01	1.960000e-01
1.970000000000001e-01	1.928278e-01	1.970000e-01
1.980000000000001e-01	1.938402e-01	1.980000e-01
1.990000000000001e-01	1.948525e-01	1.990000e-01
2.000000000000001e-01	1.958648e-01	2.000000e-01
2.010000000000002e-01	1.968771e-01	2.010000e-01
2.020000000000002e-01	1.978894e-01	2.020000e-01
2.030000000000002e-01	1.989016e-01	2.030000e-01
2.040000000000002e-01	1.999139e-01	2.040000e-01
2.050000000000002e-01	2.009261e-01	2.050000e-01
2.060000000000002e-01	2.019383e-01	2.060000e-01
2.070000000000002e-01	2.029504e-01	2.070000e-01
2.080000000000002e-01	2.039626e-01	2.080000e-01
2.090000000000002e-01	2.049747e-01	2.090000e-01
2.100000000000002e-01	2.059868e-01	2.100000e-01
2.110000000000002e-01	2.069989e-01	2.110000e-01
2.120000000000002e-01	2.080110e-01	2.120000e-01
2.130000000000002e-01	2.090231e-01	2.130000e-01
2.140000000000002e-01	2.100351e-01	2.140000e-01
2.150000000000002e-01	2.110471e-01	2.150000e-01
2.160000000000002e-01	2.120592e-01	2.160000e-01
2.170000000000002e-01	2.130712e-01	2.170000e-01
2.180000000000002e-01	2.140832e-01	2.180000e-01
2.190000000000002e-01	2.150951e-01	2.190000e-01
2.200000000000002e-01	2.161071e-01	2.200000e-01
2.210000000000002e-01	2.171191e-01	2.210000e-01
2.220000000000002e-01	2.181310e-01	2.220000e-01
2.230000000000002e-01	2.191429e-01	2.230000e-01
2.240000000000002e-01	2.201549e-01	2.240000e-01
2.250000000000002e-01	2.211668e-01	2.250000e-01
2.260000000000002e-01	2.221787e-01	2.260000e-01
2.270000000000002e-01	2.231906e-01	2.270000e-01
2.280000000000002e-01	2.242025e-01	2.280000e-01
2.290000000000002e-01	2.252143e-01	2.290000e-01
2.300000000000002e-01	2.262262e-01	2.300000e-01
2.310000000000002e-01	2.272381e-01	2.310000e-01
2.320000000000002e-01	2.282500e-01	2.320000e-01
2.330000000000002e-01	2.292618e-01	2.330000e-01
2.340000000000002e-01	2.302737e-01	2.340000e-01
2.350000000000002e-01	2.312855e-01	2.350000e-01
2.360000000000002e-01	2.322974e-01	2.360000e-01
2.370000000000002e-01	2.333093e-01	2.370000e-01
2.380000000000002e-01	2.343211e-01	2.380000e-01
2.390000000000002e-01	2.353330e-01	2.390000e-01
2.400000000000002e-01	2.363448e-01	2.400000e-01
2.410000000000002e-01	2.373566e-01	2.410000e-01
2.420000000000002e-01	2.383685e-01	2.420000e-01
2.430000000000002e-01	2.393804e-01	2.430000e-01
2.440000000000002e-01	2.403922e-01	2.440000e-01
2.450000000000002e-01	2.414041e-01	2.450000e-01
2.460000000000002e-01	2.424159e-01	2.460000e-01
2.470000000000002e-01	2.434278e-01	2.470000e-01
2.480000000000002e-01	2.444397e-01	2.480000e-01
2.490000000000002e-01	2.454515e-01	2.490000e-01
2.500000000000002e-01	2.464634e-01	2.500000e-01
2.510000000000002e-01	2.474753e-01	2.510000e-01
2.520000000000002e-01	2.484872e-01	2.520000e-01
2.530000000000002e-01	2.494991e-01	2.530000e-01
2.540000000000002e-01	2.505110e-01	2.540000e-01
2.550000000000002e-01	2.515230e-01	2.550000e-01
2.560000000000002e-01	2.525349e-01	2.560000e-01
2.570000000000002e-01	2.535468e-01	2.570000e-01
2.580000000000002e-01	2.545588e-01	2.580000e-01
2.590000000000002e-01	2.555707e-01	2.590000e-01
2.600000000000002e-01	2.565827e-01	2.600000e-01
2.610000000000002e-01	2.575947e-01	2.610000e-01
2.620000000000002e-01	2.586067e-01	2.620000e-01
2.630000000000002e-01	2.596188e-01	2.630000e-01
2.640000000000002e-01	2.606308e-01	2.640000e-01
2.650000000000002e-01	2.616428e-01	2.650000e-01
2.660000000000002e-01	2.626549e-01	2.660000e-01
2.670000000000002e-01	2.636670e-01	2.670000e-01
2.680000000000002e-01	2.646791e-01	2.680000e-01
2.690000000000002e-01	2.656913e-01	2.690000e-01
2.700000000000002e-01	2.667034e-01	2.700000e-01
2.710000000000002e-01	2.677156e-01	2.710000e-01
2.720000000000002e-01	2.687277e-01	2.720000e-01
2.730000000000002e-01	2.697400e-01	2.730000e-01
2.740000000000002e-01	2.707522e-01	2.740000e-01
2.750000000000002e-01	2.717645e-01	2.750000e-01
2.760000000000002e-01	2.727768e-01	2.760000e-01
2.770000000000002e-01	2.737890e-01	2.770000e-01
2.780000000000002e-01	2.748014e-01	2.780000e-01
2.790000000000002e-01	2.758137e-01	2.790000e-01
2.800000000000002e-01	2.768261e-01	2.800000e-01
2.810000000000002e-01	2.778385e-01	2.810000e-01
2.820000000000002e-01	2.788510e-01	2.820000e-01
2.830000000000002e-01	2.798634e-01	2.830000e-01
2.840000000000002e-01	2.808760e-01	2.840000e-01
2.850000000000002e-01	2.818885e-01	2.850000e-01
2.860000000000002e-01	2.829010e-01	2.860000e-01
2.870000000000002e-01	2.839136e-01	2.870000e-01
2.880000000000002e-01	2.849263e-01	2.880000e-01
2.890000000000002e-01	2.859389e-01	2.890000e-01
2.900000000000002e-01	2.869516e-01	2.900000e-01
2.910000000000002e-01	2.879643e-01	2.910000e-01
2.920000000000002e-01	2.889771e-01	2.920000e-01
2.930000000000002e-01	2.899899e-01	2.930000e-01
2.940000000000002e-01	2.910027e-01	2.940000e-01
2.950000000000002e-01	2.920156e-01	2.950000e-01
2.960000000000002e-01	2.930285e-01	2.960000e-01
2.970000000000002e-01	2.940415e-01	2.970000e-01
2.980000000000002e-01	2.950545e-01	2.980000e-01
2.990000000000002e-01	2.960675e-01	2.990000e-01
3.000000000000002e-01	2.970805e-01	3.000000e-01
3.010000000000002e-01	2.980936e-01	3.010000e-01
3.020000000000002e-01	2.991068e-01	3.020000e-01
3.030000000000002e-01	3.001200e-01	3.030000e-01
3.040000000000002e-01	3.011332e-01	3.040000e-01
3.050000000000002e-01	3.021465e-01	3.050000e-01
3.060000000000002e-01	3.031598e-01	3.060000e-01
3.070000000000002e-01	3.041732e-01	3.070000e-01
3.080000000000002e-01	3.051866e-01	3.080000e-01
3.090000000000002e-01	3.062001e-01	3.090000e-01
3.100000000000002e-01	3.072136e-01	3.100000e-01
3.110000000000002e-01	3.082271e-01	3.110000e-01
3.120000000000002e-01	3.092407e-01	3.120000e-01
3.130000000000002e-01	3.102543e-01	3.130000e-01
3.140000000000002e-01	3.112680e-01	3.140000e-01
3.150000000000002e-01	3.122818e-01	3.150000e-01
3.160000000000002e-01	3.132956e-01	3.160000e-01
3.170000000000002e-01	3.143094e-01	3.170000e-01
3.180000000000002e-01	3.153233e-01	3.180000e-01
3.190000000000002e-01	3.163372e-01	3.190000e-01
3.200000000000002e-01	3.173512e-01	3.200000e-01
3.210000000000002e-01	3.183653e-01	3.210000e-01
3.220000000000002e-01	3.193794e-01	3.220000e-01
3.230000000000002e-01	3.203935e-01	3.230000e-01
3.240000000000002e-01	3.214077e-01	3.240000e-01
3.250000000000002e-01	3.224219e-01	3.250000e-01
3.260000000000002e-01	3.234363e-01	3.260000e-01
3.270000000000002e-01	3.244506e-01	3.270000e-01
3.280000000000002e-01	3.254650e-01	3.280000e-01
3.290000000000002e-01	3.264795e-01	3.290000e-01
3.300000000000002e-01	3.274940e-01	3.300000e-01
3.310000000000002e-01	3.285086e-01	3.310000e-01
3.320000000000002e-01	3.295232e-01	3.320000e-01
3.330000000000002e-01	3.305379e-01	3.330000e-01
3.340000000000002e-01	3.315526e-01	3.340000e-01
3.350000000000002e-01	3.325674e-01	3.350000e-01
3.360000000000002e-01	3.335823e-01	3.360000e-01
3.370000000000002e-01	3.345972e-01	3.370000e-01
3.380000000000002e-01	3.356121e-01	3.380000e-01
3.390000000000002e-01	3.366272e-01	3.390000e-01
3.400000000000002e-01	3.376423e-01	3.400000e-01
3.410000000000002e-01	3.386574e-01	3.410000e-01
3.420000000000002e-01	3.396726e-01	3.420000e-01
3.430000000000002e-01	3.406878e-01	3.430000e-01
3.440000000000003e-01	3.417031e-01	3.440000e-01
3.450000000000003e-01	3.427185e-01	3.450000e-01
3.460000000000003e-01	3.437339e-01	3.460000e-01
3.470000000000003e-01	3.447494e-01	3.470000e-01
3.480000000000003e-01	3.457649e-01	3.480000e-01
3.490000000000003e-01	3.467805e-01	3.490000e-01
3.500000000000003e-01	3.477961e-01	3.500000e-01
3.510000000000003e-01	3.488118e-01	3.510000e-01
3.520000000000003e-01	3.498276e-01	3.520000e-01
3.530000000000003e-01	3.508434e-01	3.530000e-01
3.540000000000003e-01	3.518593e-01	3.540000e-01
3.550000000000003e-01	3.528752e-01	3.550000e-01
3.560000000000003e-01	3.538912e-01	3.560000e-01
3.570000000000003e-01	3.549073e-01	3.570000e-01
3.580000000000003e-01	3.559234e-01	3.580000e-01
3.590000000000003e-01	3.569396e-01	3.590000e-01
3.600000000000003e-01	3.579558e-01	3.600000e-01
3.610000000000003e-01	3.589720e-01	3.610000e-01
3.620000000000003e-01	3.599884e-01	3.620000e-01
3.630000000000003e-01	3.610048e-01	3.630000e-01
3.640000000000003e-01	3.620212e-01	3.640000e-01
3.650000000000003e-01	3.630377e-01	3.650000e-01
3.660000000000003e-01	3.640543e-01	3.660000e-01
3.670000000000003e-01	3.650709e-01	3.670000e-01
3.680000000000003e-01	3.660876e-01	3.680000e-01
3.690000000000003e-01	3.671043e-01	3.690000e-01
3.700000000000003e-01	3.681211e-01	3.700000e-01
3.710000000000003e-01	3.691379e-01	3.710000e-01
3.720000000000003e-01	3.701548e-01	3.720000e-01
3.730000000000003e-01	3.711717e-01	3.730000e-01
3.740000000000003e-01	3.721887e-01	3.740000e-01
3.750000000000003e-01	3.732058e-01	3.750000e-01
3.760000000000003e-01	3.742229e-01	3.760000e-01
3.770000000000003e-01	3.752401e-01	3.770000e-01
3.780000000000003e-01	3.762573e-01	3.780000e-01
3.790000000000003e-01	3.772745e-01	3.790000e-01
3.800000000000003e-01	3.782918e-01	3.800000e-01
3.810000000000003e-01	3.793092e-01	3.810000e-01
3.820000000000003e-01	3.803266e-01	3.820000e-01
3.830000000000003e-01	3.813441e-01	3.830000e-01
3.840000000000003e-01	3.823616e-01	3.840000e-01
3.850000000000003e-01	3.833792e-01	3.850000e-01
3.860000000000003e-01	3.843968e-01	3.860000e-01
3.870000000000003e-01	3.854145e-01	3.870000e-01
3.880000000000003e-01	3.864321e-01	3.880000e-01
3.890000000000003e-01	3.874499e-01	3.890000e-01
3.900000000000003e-01	3.884677e-01	3.900000e-01
3.910000000000003e-01	3.894809e-01	3.910000e-01
3.920000000000003e-01	3.904900e-01	3.920000e-01
3.930000000000003e-01	3.914983e-01	3.930000e-01
3.940000000000003e-01	3.925063e-01	3.940000e-01
3.950000000000003e-01	3.935141e-01	3.950000e-01
3.960000000000003e-01	3.945219e-01	3.960000e-01
3.970000000000003e-01	3.955295e-01	3.970000e-01
3.980000000000003e-01	3.965371e-01	3.980000e-01
3.990000000000003e-01	3.975446e-01	3.990000e-01
4.000000000000003e-01	3.985521e-01	4.000000e-01
4.010000000000003e-01	3.995596e-01	4.010000e-01
4.020000000000003e-01	4.005670e-01	4.020000e-01
4.030000000000003e-01	4.015744e-01	4.030000e-01
4.040000000000003e-01	4.025817e-01	4.040000e-01
4.050000000000003e-01	4.035890e-01	4.050000e-01
4.060000000000003e-01	4.045963e-01	4.060000e-01
4.070000000000003e-01	4.056035e-01	4.070000e-01
4.080000000000003e-01	4.066107e-01	4.080000e-01
4.090000000000003e-01	4.076179e-01	4.090000e-01
4.100000000000003e-01	4.086250e-01	4.100000e-01
4.110000000000003e-01	4.096321e-01	4.110000e-01
4.120000000000003e-01	4.106392e-01	4.120000e-01
4.130000000000003e-01	4.116463e-01	4.130000e-01
4.140000000000003e-01	4.126533e-01	4.140000e-01
4.150000000000003e-01	4.136603e-01	4.150000e-01
