vin	V(out)	V(n003)
0.000000000000000e+00	1.779882e+00	0.000000e+00
1.000000000000000e-03	1.779758e+00	1.000000e-03
2.000000000000000e-03	1.779612e+00	2.000000e-03
3.000000000000000e-03	1.779440e+00	3.000000e-03
4.000000000000000e-03	1.779237e+00	4.000000e-03
5.000000000000000e-03	1.778995e+00	5.000000e-03
6.000000000000000e-03	1.778711e+00	6.000000e-03
7.000000000000000e-03	1.778383e+00	7.000000e-03
8.000000000000000e-03	1.778011e+00	8.000000e-03
9.000000000000001e-03	1.777598e+00	9.000000e-03
1.000000000000000e-02	1.777147e+00	1.000000e-02
1.100000000000000e-02	1.776664e+00	1.100000e-02
1.200000000000000e-02	1.776152e+00	1.200000e-02
1.300000000000000e-02	1.775615e+00	1.300000e-02
1.400000000000001e-02	1.775054e+00	1.400000e-02
1.500000000000001e-02	1.774473e+00	1.500000e-02
1.600000000000001e-02	1.773872e+00	1.600000e-02
1.700000000000001e-02	1.773253e+00	1.700000e-02
1.800000000000001e-02	1.772617e+00	1.800000e-02
1.900000000000001e-02	1.771966e+00	1.900000e-02
2.000000000000001e-02	1.771299e+00	2.000000e-02
2.100000000000001e-02	1.770618e+00	2.100000e-02
2.200000000000001e-02	1.769923e+00	2.200000e-02
2.300000000000001e-02	1.769215e+00	2.300000e-02
2.400000000000001e-02	1.768495e+00	2.400000e-02
2.500000000000002e-02	1.767763e+00	2.500000e-02
2.600000000000002e-02	1.767020e+00	2.600000e-02
2.700000000000002e-02	1.766266e+00	2.700000e-02
2.800000000000002e-02	1.765501e+00	2.800000e-02
2.900000000000002e-02	1.764727e+00	2.900000e-02
3.000000000000002e-02	1.763943e+00	3.000000e-02
3.100000000000002e-02	1.763150e+00	3.100000e-02
3.200000000000002e-02	1.762348e+00	3.200000e-02
3.300000000000002e-02	1.761539e+00	3.300000e-02
3.400000000000002e-02	1.760721e+00	3.400000e-02
3.500000000000002e-02	1.759896e+00	3.500000e-02
3.600000000000003e-02	1.759064e+00	3.600000e-02
3.700000000000003e-02	1.758225e+00	3.700000e-02
3.800000000000003e-02	1.757380e+00	3.800000e-02
3.900000000000003e-02	1.756528e+00	3.900000e-02
4.000000000000003e-02	1.755670e+00	4.000000e-02
4.100000000000003e-02	1.754807e+00	4.100000e-02
4.200000000000003e-02	1.753939e+00	4.200000e-02
4.300000000000003e-02	1.753065e+00	4.300000e-02
4.400000000000003e-02	1.752186e+00	4.400000e-02
4.500000000000003e-02	1.751303e+00	4.500000e-02
4.600000000000003e-02	1.750415e+00	4.600000e-02
4.700000000000003e-02	1.749523e+00	4.700000e-02
4.800000000000004e-02	1.748627e+00	4.800000e-02
4.900000000000004e-02	1.747727e+00	4.900000e-02
5.000000000000004e-02	1.746824e+00	5.000000e-02
5.100000000000004e-02	1.745916e+00	5.100000e-02
5.200000000000004e-02	1.745006e+00	5.200000e-02
5.300000000000004e-02	1.744092e+00	5.300000e-02
5.400000000000004e-02	1.743175e+00	5.400000e-02
5.500000000000004e-02	1.742255e+00	5.500000e-02
5.600000000000004e-02	1.741333e+00	5.600000e-02
5.700000000000004e-02	1.740407e+00	5.700000e-02
5.800000000000004e-02	1.739480e+00	5.800000e-02
5.900000000000005e-02	1.738549e+00	5.900000e-02
6.000000000000005e-02	1.737616e+00	6.000000e-02
6.100000000000005e-02	1.736681e+00	6.100000e-02
6.200000000000005e-02	1.735744e+00	6.200000e-02
6.300000000000004e-02	1.734805e+00	6.300000e-02
6.400000000000004e-02	1.733863e+00	6.400000e-02
6.500000000000004e-02	1.732920e+00	6.500000e-02
6.600000000000004e-02	1.731975e+00	6.600000e-02
6.700000000000005e-02	1.731028e+00	6.700000e-02
6.800000000000005e-02	1.730080e+00	6.800000e-02
6.900000000000005e-02	1.729129e+00	6.900000e-02
7.000000000000005e-02	1.728178e+00	7.000000e-02
7.100000000000005e-02	1.727224e+00	7.100000e-02
7.200000000000005e-02	1.726270e+00	7.200000e-02
7.300000000000005e-02	1.725313e+00	7.300000e-02
7.400000000000005e-02	1.724356e+00	7.400000e-02
7.500000000000005e-02	1.723397e+00	7.500000e-02
7.600000000000005e-02	1.722437e+00	7.600000e-02
7.700000000000005e-02	1.721476e+00	7.700000e-02
7.800000000000006e-02	1.720513e+00	7.800000e-02
7.900000000000006e-02	1.719550e+00	7.900000e-02
8.000000000000006e-02	1.718585e+00	8.000000e-02
8.100000000000006e-02	1.717620e+00	8.100000e-02
8.200000000000006e-02	1.716653e+00	8.200000e-02
8.300000000000006e-02	1.715685e+00	8.300000e-02
8.400000000000006e-02	1.714717e+00	8.400000e-02
8.500000000000006e-02	1.713747e+00	8.500000e-02
8.600000000000006e-02	1.712777e+00	8.600000e-02
8.700000000000006e-02	1.711805e+00	8.700000e-02
8.800000000000006e-02	1.710833e+00	8.800000e-02
8.900000000000007e-02	1.709860e+00	8.900000e-02
9.000000000000007e-02	1.708887e+00	9.000000e-02
9.100000000000007e-02	1.707912e+00	9.100000e-02
9.200000000000007e-02	1.706937e+00	9.200000e-02
9.300000000000007e-02	1.705961e+00	9.300000e-02
9.400000000000007e-02	1.704985e+00	9.400000e-02
9.500000000000007e-02	1.704008e+00	9.500000e-02
9.600000000000007e-02	1.703030e+00	9.600000e-02
9.700000000000007e-02	1.702052e+00	9.700000e-02
9.800000000000007e-02	1.701072e+00	9.800000e-02
9.900000000000007e-02	1.700093e+00	9.900000e-02
1.000000000000001e-01	1.699113e+00	1.000000e-01
1.010000000000001e-01	1.698132e+00	1.010000e-01
1.020000000000001e-01	1.697151e+00	1.020000e-01
1.030000000000001e-01	1.696169e+00	1.030000e-01
1.040000000000001e-01	1.695186e+00	1.040000e-01
1.050000000000001e-01	1.694204e+00	1.050000e-01
1.060000000000001e-01	1.693220e+00	1.060000e-01
1.070000000000001e-01	1.692237e+00	1.070000e-01
1.080000000000001e-01	1.691253e+00	1.080000e-01
1.090000000000001e-01	1.690268e+00	1.090000e-01
1.100000000000001e-01	1.689283e+00	1.100000e-01
1.110000000000001e-01	1.688298e+00	1.110000e-01
1.120000000000001e-01	1.687312e+00	1.120000e-01
1.130000000000001e-01	1.686325e+00	1.130000e-01
1.140000000000001e-01	1.685339e+00	1.140000e-01
1.150000000000001e-01	1.684352e+00	1.150000e-01
1.160000000000001e-01	1.683364e+00	1.160000e-01
1.170000000000001e-01	1.682377e+00	1.170000e-01
1.180000000000001e-01	1.681389e+00	1.180000e-01
1.190000000000001e-01	1.680400e+00	1.190000e-01
1.200000000000001e-01	1.679412e+00	1.200000e-01
1.210000000000001e-01	1.678423e+00	1.210000e-01
1.220000000000001e-01	1.677433e+00	1.220000e-01
1.230000000000001e-01	1.676444e+00	1.230000e-01
1.240000000000001e-01	1.675454e+00	1.240000e-01
1.250000000000001e-01	1.674464e+00	1.250000e-01
1.260000000000001e-01	1.673473e+00	1.260000e-01
1.270000000000001e-01	1.672482e+00	1.270000e-01
1.280000000000001e-01	1.671491e+00	1.280000e-01
1.290000000000001e-01	1.670500e+00	1.290000e-01
1.300000000000001e-01	1.669509e+00	1.300000e-01
1.310000000000001e-01	1.668517e+00	1.310000e-01
1.320000000000001e-01	1.667525e+00	1.320000e-01
1.330000000000001e-01	1.666533e+00	1.330000e-01
1.340000000000001e-01	1.665540e+00	1.340000e-01
1.350000000000001e-01	1.664548e+00	1.350000e-01
1.360000000000001e-01	1.663555e+00	1.360000e-01
1.370000000000001e-01	1.662562e+00	1.370000e-01
1.380000000000001e-01	1.661569e+00	1.380000e-01
1.390000000000001e-01	1.660575e+00	1.390000e-01
1.400000000000001e-01	1.659582e+00	1.400000e-01
1.410000000000001e-01	1.658588e+00	1.410000e-01
1.420000000000001e-01	1.657594e+00	1.420000e-01
1.430000000000001e-01	1.656600e+00	1.430000e-01
1.440000000000001e-01	1.655605e+00	1.440000e-01
1.450000000000001e-01	1.654611e+00	1.450000e-01
1.460000000000001e-01	1.653616e+00	1.460000e-01
1.470000000000001e-01	1.652622e+00	1.470000e-01
1.480000000000001e-01	1.651627e+00	1.480000e-01
1.490000000000001e-01	1.650631e+00	1.490000e-01
1.500000000000001e-01	1.649636e+00	1.500000e-01
1.510000000000001e-01	1.648641e+00	1.510000e-01
1.520000000000001e-01	1.647645e+00	1.520000e-01
1.530000000000001e-01	1.646650e+00	1.530000e-01
1.540000000000001e-01	1.645654e+00	1.540000e-01
1.550000000000001e-01	1.644658e+00	1.550000e-01
1.560000000000001e-01	1.643662e+00	1.560000e-01
1.570000000000001e-01	1.642666e+00	1.570000e-01
1.580000000000001e-01	1.641670e+00	1.580000e-01
1.590000000000001e-01	1.640674e+00	1.590000e-01
1.600000000000001e-01	1.639677e+00	1.600000e-01
1.610000000000001e-01	1.638681e+00	1.610000e-01
1.620000000000001e-01	1.637684e+00	1.620000e-01
1.630000000000001e-01	1.636687e+00	1.630000e-01
1.640000000000001e-01	1.635690e+00	1.640000e-01
1.650000000000001e-01	1.634694e+00	1.650000e-01
1.660000000000001e-01	1.633696e+00	1.660000e-01
1.670000000000001e-01	1.632699e+00	1.670000e-01
1.680000000000001e-01	1.631702e+00	1.680000e-01
1.690000000000001e-01	1.630705e+00	1.690000e-01
1.700000000000001e-01	1.629708e+00	1.700000e-01
1.710000000000001e-01	1.628710e+00	1.710000e-01
1.720000000000001e-01	1.627713e+00	1.720000e-01
1.730000000000001e-01	1.626715e+00	1.730000e-01
1.740000000000001e-01	1.625718e+00	1.740000e-01
1.750000000000001e-01	1.624720e+00	1.750000e-01
1.760000000000001e-01	1.623722e+00	1.760000e-01
1.770000000000001e-01	1.622725e+00	1.770000e-01
1.780000000000001e-01	1.621727e+00	1.780000e-01
1.790000000000001e-01	1.620729e+00	1.790000e-01
1.800000000000001e-01	1.619731e+00	1.800000e-01
1.810000000000001e-01	1.618733e+00	1.810000e-01
1.820000000000001e-01	1.617735e+00	1.820000e-01
1.830000000000001e-01	1.616737e+00	1.830000e-01
1.840000000000001e-01	1.615738e+00	1.840000e-01
1.850000000000001e-01	1.614740e+00	1.850000e-01
1.860000000000001e-01	1.613742e+00	1.860000e-01
1.870000000000001e-01	1.612744e+00	1.870000e-01
1.880000000000001e-01	1.611745e+00	1.880000e-01
1.890000000000001e-01	1.610747e+00	1.890000e-01
1.900000000000001e-01	1.609748e+00	1.900000e-01
1.910000000000001e-01	1.608750e+00	1.910000e-01
1.920000000000001e-01	1.607751e+00	1.920000e-01
1.930000000000001e-01	1.606753e+00	1.930000e-01
1.940000000000001e-01	1.605754e+00	1.940000e-01
1.950000000000001e-01	1.604756e+00	1.950000e-01
1.960000000000001e-01	1.603757e+00	1.960000e-01
1.970000000000001e-01	1.602758e+00	1.970000e-01
1.980000000000001e-01	1.601760e+00	1.980000e-01
1.990000000000001e-01	1.600761e+00	1.990000e-01
2.000000000000001e-01	1.599762e+00	2.000000e-01
2.010000000000002e-01	1.598763e+00	2.010000e-01
2.020000000000002e-01	1.597764e+00	2.020000e-01
2.030000000000002e-01	1.596766e+00	2.030000e-01
2.040000000000002e-01	1.595767e+00	2.040000e-01
2.050000000000002e-01	1.594768e+00	2.050000e-01
2.060000000000002e-01	1.593769e+00	2.060000e-01
2.070000000000002e-01	1.592770e+00	2.070000e-01
2.080000000000002e-01	1.591771e+00	2.080000e-01
2.090000000000002e-01	1.590772e+00	2.090000e-01
2.100000000000002e-01	1.589773e+00	2.100000e-01
2.110000000000002e-01	1.588774e+00	2.110000e-01
2.120000000000002e-01	1.587775e+00	2.120000e-01
2.130000000000002e-01	1.586776e+00	2.130000e-01
2.140000000000002e-01	1.585777e+00	2.140000e-01
2.150000000000002e-01	1.584778e+00	2.150000e-01
2.160000000000002e-01	1.583779e+00	2.160000e-01
2.170000000000002e-01	1.582780e+00	2.170000e-01
2.180000000000002e-01	1.581780e+00	2.180000e-01
2.190000000000002e-01	1.580781e+00	2.190000e-01
2.200000000000002e-01	1.579782e+00	2.200000e-01
2.210000000000002e-01	1.578783e+00	2.210000e-01
2.220000000000002e-01	1.577784e+00	2.220000e-01
2.230000000000002e-01	1.576784e+00	2.230000e-01
2.240000000000002e-01	1.575785e+00	2.240000e-01
2.250000000000002e-01	1.574786e+00	2.250000e-01
2.260000000000002e-01	1.573787e+00	2.260000e-01
2.270000000000002e-01	1.572787e+00	2.270000e-01
2.280000000000002e-01	1.571788e+00	2.280000e-01
2.290000000000002e-01	1.570789e+00	2.290000e-01
2.300000000000002e-01	1.569789e+00	2.300000e-01
2.310000000000002e-01	1.568790e+00	2.310000e-01
2.320000000000002e-01	1.567791e+00	2.320000e-01
2.330000000000002e-01	1.566791e+00	2.330000e-01
2.340000000000002e-01	1.565792e+00	2.340000e-01
2.350000000000002e-01	1.564793e+00	2.350000e-01
2.360000000000002e-01	1.563793e+00	2.360000e-01
2.370000000000002e-01	1.562794e+00	2.370000e-01
2.380000000000002e-01	1.561795e+00	2.380000e-01
2.390000000000002e-01	1.560795e+00	2.390000e-01
2.400000000000002e-01	1.559796e+00	2.400000e-01
2.410000000000002e-01	1.558796e+00	2.410000e-01
2.420000000000002e-01	1.557797e+00	2.420000e-01
2.430000000000002e-01	1.556798e+00	2.430000e-01
2.440000000000002e-01	1.555798e+00	2.440000e-01
2.450000000000002e-01	1.554799e+00	2.450000e-01
2.460000000000002e-01	1.553799e+00	2.460000e-01
2.470000000000002e-01	1.552800e+00	2.470000e-01
2.480000000000002e-01	1.551800e+00	2.480000e-01
2.490000000000002e-01	1.550801e+00	2.490000e-01
2.500000000000002e-01	1.549801e+00	2.500000e-01
2.510000000000002e-01	1.548802e+00	2.510000e-01
2.520000000000002e-01	1.547802e+00	2.520000e-01
2.530000000000002e-01	1.546803e+00	2.530000e-01
2.540000000000002e-01	1.545803e+00	2.540000e-01
2.550000000000002e-01	1.544804e+00	2.550000e-01
2.560000000000002e-01	1.543804e+00	2.560000e-01
2.570000000000002e-01	1.542805e+00	2.570000e-01
2.580000000000002e-01	1.541805e+00	2.580000e-01
2.590000000000002e-01	1.540806e+00	2.590000e-01
2.600000000000002e-01	1.539806e+00	2.600000e-01
2.610000000000002e-01	1.538807e+00	2.610000e-01
2.620000000000002e-01	1.537807e+00	2.620000e-01
2.630000000000002e-01	1.536808e+00	2.630000e-01
2.640000000000002e-01	1.535808e+00	2.640000e-01
2.650000000000002e-01	1.534808e+00	2.650000e-01
2.660000000000002e-01	1.533809e+00	2.660000e-01
2.670000000000002e-01	1.532809e+00	2.670000e-01
2.680000000000002e-01	1.531810e+00	2.680000e-01
2.690000000000002e-01	1.530810e+00	2.690000e-01
2.700000000000002e-01	1.529811e+00	2.700000e-01
2.710000000000002e-01	1.528811e+00	2.710000e-01
2.720000000000002e-01	1.527811e+00	2.720000e-01
2.730000000000002e-01	1.526812e+00	2.730000e-01
2.740000000000002e-01	1.525812e+00	2.740000e-01
2.750000000000002e-01	1.524813e+00	2.750000e-01
2.760000000000002e-01	1.523813e+00	2.760000e-01
2.770000000000002e-01	1.522813e+00	2.770000e-01
2.780000000000002e-01	1.521814e+00	2.780000e-01
2.790000000000002e-01	1.520814e+00	2.790000e-01
2.800000000000002e-01	1.519815e+00	2.800000e-01
2.810000000000002e-01	1.518815e+00	2.810000e-01
2.820000000000002e-01	1.517815e+00	2.820000e-01
2.830000000000002e-01	1.516816e+00	2.830000e-01
2.840000000000002e-01	1.515816e+00	2.840000e-01
2.850000000000002e-01	1.514817e+00	2.850000e-01
2.860000000000002e-01	1.513817e+00	2.860000e-01
2.870000000000002e-01	1.512817e+00	2.870000e-01
2.880000000000002e-01	1.511818e+00	2.880000e-01
2.890000000000002e-01	1.510818e+00	2.890000e-01
2.900000000000002e-01	1.509819e+00	2.900000e-01
2.910000000000002e-01	1.508819e+00	2.910000e-01
2.920000000000002e-01	1.507819e+00	2.920000e-01
2.930000000000002e-01	1.506820e+00	2.930000e-01
2.940000000000002e-01	1.505820e+00	2.940000e-01
2.950000000000002e-01	1.504820e+00	2.950000e-01
2.960000000000002e-01	1.503821e+00	2.960000e-01
2.970000000000002e-01	1.502821e+00	2.970000e-01
2.980000000000002e-01	1.501821e+00	2.980000e-01
2.990000000000002e-01	1.500822e+00	2.990000e-01
3.000000000000002e-01	1.499822e+00	3.000000e-01
3.010000000000002e-01	1.498822e+00	3.010000e-01
3.020000000000002e-01	1.497823e+00	3.020000e-01
3.030000000000002e-01	1.496823e+00	3.030000e-01
3.040000000000002e-01	1.495824e+00	3.040000e-01
3.050000000000002e-01	1.494824e+00	3.050000e-01
3.060000000000002e-01	1.493824e+00	3.060000e-01
3.070000000000002e-01	1.492824e+00	3.070000e-01
3.080000000000002e-01	1.491825e+00	3.080000e-01
3.090000000000002e-01	1.490825e+00	3.090000e-01
3.100000000000002e-01	1.489825e+00	3.100000e-01
3.110000000000002e-01	1.488826e+00	3.110000e-01
3.120000000000002e-01	1.487826e+00	3.120000e-01
3.130000000000002e-01	1.486827e+00	3.130000e-01
3.140000000000002e-01	1.485827e+00	3.140000e-01
3.150000000000002e-01	1.484827e+00	3.150000e-01
3.160000000000002e-01	1.483827e+00	3.160000e-01
3.170000000000002e-01	1.482828e+00	3.170000e-01
3.180000000000002e-01	1.481828e+00	3.180000e-01
3.190000000000002e-01	1.480828e+00	3.190000e-01
3.200000000000002e-01	1.479829e+00	3.200000e-01
3.210000000000002e-01	1.478829e+00	3.210000e-01
3.220000000000002e-01	1.477829e+00	3.220000e-01
3.230000000000002e-01	1.476830e+00	3.230000e-01
3.240000000000002e-01	1.475830e+00	3.240000e-01
3.250000000000002e-01	1.474830e+00	3.250000e-01
3.260000000000002e-01	1.473831e+00	3.260000e-01
3.270000000000002e-01	1.472831e+00	3.270000e-01
3.280000000000002e-01	1.471831e+00	3.280000e-01
3.290000000000002e-01	1.470832e+00	3.290000e-01
3.300000000000002e-01	1.469832e+00	3.300000e-01
3.310000000000002e-01	1.468832e+00	3.310000e-01
3.320000000000002e-01	1.467833e+00	3.320000e-01
3.330000000000002e-01	1.466833e+00	3.330000e-01
3.340000000000002e-01	1.465833e+00	3.340000e-01
3.350000000000002e-01	1.464833e+00	3.350000e-01
3.360000000000002e-01	1.463834e+00	3.360000e-01
3.370000000000002e-01	1.462834e+00	3.370000e-01
3.380000000000002e-01	1.461834e+00	3.380000e-01
3.390000000000002e-01	1.460835e+00	3.390000e-01
3.400000000000002e-01	1.459835e+00	3.400000e-01
3.410000000000002e-01	1.458835e+00	3.410000e-01
3.420000000000002e-01	1.457836e+00	3.420000e-01
3.430000000000002e-01	1.456836e+00	3.430000e-01
3.440000000000003e-01	1.455836e+00	3.440000e-01
3.450000000000003e-01	1.454836e+00	3.450000e-01
3.460000000000003e-01	1.453837e+00	3.460000e-01
3.470000000000003e-01	1.452837e+00	3.470000e-01
3.480000000000003e-01	1.451837e+00	3.480000e-01
3.490000000000003e-01	1.450838e+00	3.490000e-01
3.500000000000003e-01	1.449838e+00	3.500000e-01
3.510000000000003e-01	1.448838e+00	3.510000e-01
3.520000000000003e-01	1.447839e+00	3.520000e-01
3.530000000000003e-01	1.446839e+00	3.530000e-01
3.540000000000003e-01	1.445839e+00	3.540000e-01
3.550000000000003e-01	1.444839e+00	3.550000e-01
3.560000000000003e-01	1.443840e+00	3.560000e-01
3.570000000000003e-01	1.442840e+00	3.570000e-01
3.580000000000003e-01	1.441840e+00	3.580000e-01
3.590000000000003e-01	1.440840e+00	3.590000e-01
3.600000000000003e-01	1.439841e+00	3.600000e-01
3.610000000000003e-01	1.438841e+00	3.610000e-01
3.620000000000003e-01	1.437841e+00	3.620000e-01
3.630000000000003e-01	1.436842e+00	3.630000e-01
3.640000000000003e-01	1.435842e+00	3.640000e-01
3.650000000000003e-01	1.434842e+00	3.650000e-01
3.660000000000003e-01	1.433843e+00	3.660000e-01
3.670000000000003e-01	1.432843e+00	3.670000e-01
3.680000000000003e-01	1.431843e+00	3.680000e-01
3.690000000000003e-01	1.430843e+00	3.690000e-01
3.700000000000003e-01	1.429844e+00	3.700000e-01
3.710000000000003e-01	1.428844e+00	3.710000e-01
3.720000000000003e-01	1.427844e+00	3.720000e-01
3.730000000000003e-01	1.426844e+00	3.730000e-01
3.740000000000003e-01	1.425845e+00	3.740000e-01
3.750000000000003e-01	1.424845e+00	3.750000e-01
3.760000000000003e-01	1.423845e+00	3.760000e-01
3.770000000000003e-01	1.422846e+00	3.770000e-01
3.780000000000003e-01	1.421846e+00	3.780000e-01
3.790000000000003e-01	1.420846e+00	3.790000e-01
3.800000000000003e-01	1.419846e+00	3.800000e-01
3.810000000000003e-01	1.418847e+00	3.810000e-01
3.820000000000003e-01	1.417847e+00	3.820000e-01
3.830000000000003e-01	1.416847e+00	3.830000e-01
3.840000000000003e-01	1.415848e+00	3.840000e-01
3.850000000000003e-01	1.414848e+00	3.850000e-01
3.860000000000003e-01	1.413848e+00	3.860000e-01
3.870000000000003e-01	1.412848e+00	3.870000e-01
3.880000000000003e-01	1.411849e+00	3.880000e-01
3.890000000000003e-01	1.410849e+00	3.890000e-01
3.900000000000003e-01	1.409849e+00	3.900000e-01
3.910000000000003e-01	1.408849e+00	3.910000e-01
3.920000000000003e-01	1.407850e+00	3.920000e-01
3.930000000000003e-01	1.406850e+00	3.930000e-01
3.940000000000003e-01	1.405850e+00	3.940000e-01
3.950000000000003e-01	1.404851e+00	3.950000e-01
3.960000000000003e-01	1.403851e+00	3.960000e-01
3.970000000000003e-01	1.402851e+00	3.970000e-01
3.980000000000003e-01	1.401851e+00	3.980000e-01
3.990000000000003e-01	1.400852e+00	3.990000e-01
4.000000000000003e-01	1.399852e+00	4.000000e-01
4.010000000000003e-01	1.398852e+00	4.010000e-01
4.020000000000003e-01	1.397852e+00	4.020000e-01
4.030000000000003e-01	1.396853e+00	4.030000e-01
4.040000000000003e-01	1.395853e+00	4.040000e-01
4.050000000000003e-01	1.394853e+00	4.050000e-01
4.060000000000003e-01	1.393854e+00	4.060000e-01
4.070000000000003e-01	1.392854e+00	4.070000e-01
4.080000000000003e-01	1.391854e+00	4.080000e-01
4.090000000000003e-01	1.390854e+00	4.090000e-01
4.100000000000003e-01	1.389855e+00	4.100000e-01
4.110000000000003e-01	1.388855e+00	4.110000e-01
4.120000000000003e-01	1.387855e+00	4.120000e-01
4.130000000000003e-01	1.386855e+00	4.130000e-01
4.140000000000003e-01	1.385856e+00	4.140000e-01
4.150000000000003e-01	1.384856e+00	4.150000e-01
